
T1B20 000:005 SEGGER J-Link V6.30e Log File (0001ms, 0006ms total)
T1B20 000:005 DLL Compiled: Feb 23 2018 13:14:25 (0001ms, 0006ms total)
T1B20 000:005 Logging started @ 2018-09-10 13:37 (0001ms, 0006ms total)
T1B20 000:006 JLINK_SetWarnOutHandler(...) (0000ms, 0006ms total)
T1B20 000:006 JLINK_OpenEx(...)
Firmware: J-Link OB-SAM3U128-V2-NordicSemi compiled Jan 12 2018 16:05:20
Hardware: V1.00
S/N: 682192062
TELNET listener socket opened on port 19021WEBSRV 
Starting webserver (0013ms, 0019ms total)
T1B20 000:006 WEBSRV Webserver running on local port 19080 (0013ms, 0019ms total)
T1B20 000:006   returns O.K. (0013ms, 0019ms total)
T1B20 000:019 JLINK_GetEmuCaps()  returns 0xB8EA5A33 (0000ms, 0019ms total)
T1B20 000:019 JLINK_TIF_GetAvailable(...) (0001ms, 0020ms total)
T1B20 000:020 JLINK_SetErrorOutHandler(...) (0000ms, 0020ms total)
T1B20 000:020 JLINK_ExecCommand("ProjectFile = "C:\work\project\bluetooth\downloadFile\nRF5_SDK_14.2.0_17b948a\project\torqueSensor_4\JLinkSettings.ini"", ...).   returns 0x00 (0141ms, 0161ms total)
T1B20 000:164 JLINK_ExecCommand("Device = nRF52832_xxAA", ...). Device "NRF52832_XXAA" selected.  returns 0x00 (0006ms, 0167ms total)
T1B20 000:170 JLINK_ExecCommand("DisableConnectionTimeout", ...).   returns 0x01 (0000ms, 0167ms total)
T1B20 000:170 JLINK_GetHardwareVersion()  returns 0x2710 (0000ms, 0167ms total)
T1B20 000:170 JLINK_GetDLLVersion()  returns 63005 (0000ms, 0167ms total)
T1B20 000:170 JLINK_GetFirmwareString(...) (0000ms, 0167ms total)
T1B20 000:178 JLINK_GetDLLVersion()  returns 63005 (0000ms, 0167ms total)
T1B20 000:178 JLINK_GetCompileDateTime() (0000ms, 0167ms total)
T1B20 000:180 JLINK_GetFirmwareString(...) (0000ms, 0167ms total)
T1B20 000:184 JLINK_GetHardwareVersion()  returns 0x2710 (0000ms, 0167ms total)
T1B20 000:192 JLINK_TIF_Select(JLINKARM_TIF_SWD)  returns 0x00 (0002ms, 0169ms total)
T1B20 000:194 JLINK_SetSpeed(5000) (0000ms, 0169ms total)
T1B20 000:194 JLINK_GetId() >0x10B TIF>Found SW-DP with ID 0x2BA01477 >0x0D TIF> >0x28 TIF> >0x0D TIF> >0x28 TIF> >0x10B TIF>Found SW-DP with ID 0x2BA01477 >0x0D TIF> >0x28 TIF> >0x0D TIF> >0x28 TIF> >0x0D TIF> >0x28 TIF> >0x0D TIF> >0x28 TIF> >0x35 TIF> >0x0D TIF> >0x28 TIF>Scanning AP map to find all available APs >0x0D TIF> >0x28 TIF> >0x35 TIF> >0x35 TIF> >0x0D TIF> >0x28 TIF> >0x35 TIF> >0x35 TIF> >0x0D TIF> >0x28 TIF> >0x35 TIF> >0x35 TIF>AP[2]: Stopped AP scan as end of AP map has been reached
AP[0]: AHB-AP (IDR: 0x24770011)AP[1]: JTAG-AP (IDR: 0x02880000)Iterating through AP map to find AHB-AP to use >0x42 TIF> >0x28 TIF> >0x0D TIF> >0x28 TIF> >0x35 TIF> >0x35 TIF> >0x42 TIF> >0x28 TIF> >0x0D TIF> >0x28 TIF> >0x0D TIF> >0x28 TIF> >0x35 TIF> >0x35 TIF>AP[0]: Core foundAP[0]: AHB-AP ROM base: 0xE00FF000 >0x0D TIF> >0x28 TIF> >0x0D TIF> >0x28 TIF> >0x0D TIF> >0x28 TIF> >0x35 TIF> >0x35 TIF>CPUID register: 0x410FC241. Implementer code: 0x41 (ARM)Found Cortex-M4 r0p1, Little endian.
 -- CPU_ReadMem(4 bytes @ 0xE000EDF0) -- CPU_WriteMem(4 bytes @ 0xE000EDF0) -- CPU_ReadMem(4 bytes @ 0xE0002000)FPUnit: 6 code (BP) slots and 2 literal slots -- CPU_ReadMem(4 bytes @ 0xE000EDFC) -- CPU_WriteMem(4 bytes @ 0xE000EDFC) -- CPU_ReadMem(4 bytes @ 0xE0001000) -- CPU_WriteMem(4 bytes @ 0xE0001000) -- CPU_ReadMem(4 bytes @ 0xE000ED88) -- CPU_WriteMem(4 bytes @ 0xE000ED88) -- CPU_ReadMem(4 bytes @ 0xE000ED88) -- CPU_WriteMem(4 bytes @ 0xE000ED88)CoreSight components:ROMTbl[0] @ E00FF000
 -- CPU_ReadMem(16 bytes @ 0xE00FF000) -- CPU_ReadMem(16 bytes @ 0xE000EFF0) -- CPU_ReadMem(16 bytes @ 0xE000EFE0)ROMTbl[0][0]: E000E000, CID: B105E00D, PID: 000BB00C SCS-M7 -- CPU_ReadMem(16 bytes @ 0xE0001FF0) -- CPU_ReadMem(16 bytes @ 0xE0001FE0)ROMTbl[0][1]: E0001000, CID: B105E00D, PID: 003BB002 DWT -- CPU_ReadMem(16 bytes @ 0xE0002FF0) -- CPU_ReadMem(16 bytes @ 0xE0002FE0)ROMTbl[0][2]: E0002000, CID: B105E00D, PID: 002BB003 FPB -- CPU_ReadMem(16 bytes @ 0xE0000FF0)
 -- CPU_ReadMem(16 bytes @ 0xE0000FE0)ROMTbl[0][3]: E0000000, CID: B105E00D, PID: 003BB001 ITM -- CPU_ReadMem(16 bytes @ 0xE00FF010) -- CPU_ReadMem(16 bytes @ 0xE0040FF0) -- CPU_ReadMem(16 bytes @ 0xE0040FE0)ROMTbl[0][4]: E0040000, CID: B105900D, PID: 000BB9A1 TPIU -- CPU_ReadMem(16 bytes @ 0xE0041FF0) -- CPU_ReadMem(16 bytes @ 0xE0041FE0)ROMTbl[0][5]: E0041000, CID: B105900D, PID: 000BB925 ETM >0x35 TIF>  returns 0x2BA01477 (0221ms, 0390ms total)
T1B20 000:415 JLINK_GetDLLVersion()  returns 63005 (0000ms, 0390ms total)
T1B20 000:415 JLINK_CORE_GetFound()  returns 0xE0000FF (0000ms, 0390ms total)
T1B20 000:415 JLINK_GetDebugInfo(0x100 = JLINKARM_ROM_TABLE_ADDR_INDEX) -- Value=0xE00FF000  returns 0x00 (0000ms, 0390ms total)
T1B20 000:419 JLINK_GetDebugInfo(0x100 = JLINKARM_ROM_TABLE_ADDR_INDEX) -- Value=0xE00FF000  returns 0x00 (0000ms, 0391ms total)
T1B20 000:419 JLINK_GetDebugInfo(0x101 = JLINKARM_DEBUG_INFO_ETM_ADDR_INDEX) -- Value=0xE0041000  returns 0x00 (0000ms, 0391ms total)
T1B20 000:419 JLINK_ReadMemEx(0xE0041FD0, 0x0020 Bytes, ..., Flags = 0x02000004) -- CPU_ReadMem(32 bytes @ 0xE0041FD0) - Data: 04 00 00 00 00 00 00 00 00 00 00 00 00 00 00 00 ...  returns 0x20 (0002ms, 0393ms total)
T1B20 000:421 JLINK_GetDebugInfo(0x102 = JLINKARM_DEBUG_INFO_MTB_ADDR_INDEX) -- Value=0x00000000  returns 0x00 (0000ms, 0393ms total)
T1B20 000:421 JLINK_GetDebugInfo(0x103 = JLINKARM_DEBUG_INFO_TPIU_ADDR_INDEX) -- Value=0xE0040000  returns 0x00 (0000ms, 0393ms total)
T1B20 000:421 JLINK_GetDebugInfo(0x104 = JLINKARM_DEBUG_INFO_ITM_ADDR_INDEX) -- Value=0xE0000000  returns 0x00 (0000ms, 0393ms total)
T1B20 000:421 JLINK_GetDebugInfo(0x105 = JLINKARM_DEBUG_INFO_DWT_ADDR_INDEX) -- Value=0xE0001000  returns 0x00 (0000ms, 0393ms total)
T1B20 000:421 JLINK_GetDebugInfo(0x106 = JLINKARM_DEBUG_INFO_FPB_ADDR_INDEX) -- Value=0xE0002000  returns 0x00 (0000ms, 0393ms total)
T1B20 000:421 JLINK_GetDebugInfo(0x107 = JLINKARM_DEBUG_INFO_NVIC_ADDR_INDEX) -- Value=0xE000E000  returns 0x00 (0000ms, 0393ms total)
T1B20 000:421 JLINK_GetDebugInfo(0x10C = JLINKARM_DEBUG_INFO_DBG_ADDR_INDEX) -- Value=0xE000EDF0  returns 0x00 (0000ms, 0393ms total)
T1B20 000:421 JLINK_ReadMemU32(0xE000EF40, 0x0001 Items, ...) -- CPU_ReadMem(4 bytes @ 0xE000EF40) - Data: 21 00 11 10  returns 0x01 (0001ms, 0394ms total)
T1B20 000:422 JLINK_ReadMemU32(0xE000EF44, 0x0001 Items, ...) -- CPU_ReadMem(4 bytes @ 0xE000EF44) - Data: 11 00 00 11  returns 0x01 (0001ms, 0395ms total)
T1B20 000:423 JLINK_ReadMemU32(0xE000ED00, 0x0001 Items, ...) -- CPU_ReadMem(4 bytes @ 0xE000ED00) - Data: 41 C2 0F 41  returns 0x01 (0001ms, 0396ms total)
T1B20 000:424 JLINK_GetDebugInfo(0x10F = JLINKARM_DEBUG_INFO_HAS_CORTEX_M_SECURITY_EXT_INDEX) -- Value=0x00000000  returns 0x00 (0000ms, 0396ms total)
T1B20 000:424 JLINK_SetResetType(JLINKARM_CM3_RESET_TYPE_NORMAL)  returns JLINKARM_CM3_RESET_TYPE_NORMAL (0000ms, 0396ms total)
T1B20 000:424 JLINK_Reset() -- CPU is running -- CPU_WriteMem(4 bytes @ 0xE000EDF0) -- CPU is running -- CPU_WriteMem(4 bytes @ 0xE000EDFC)Reset: Halt core after reset via DEMCR.VC_CORERESET. >0x35 TIF>Reset: Reset device via AIRCR.SYSRESETREQ. -- CPU is running -- CPU_WriteMem(4 bytes @ 0xE000ED0C) >0x0D TIF> >0x28 TIF> -- CPU_ReadMem(4 bytes @ 0xE000EDF0) -- CPU_ReadMem(4 bytes @ 0xE000EDF0) -- CPU is running -- CPU_WriteMem(4 bytes @ 0xE000EDF0) -- CPU is running -- CPU_WriteMem(4 bytes @ 0xE000EDFC)
 -- CPU_ReadMem(4 bytes @ 0xE000EDF0) -- CPU_WriteMem(4 bytes @ 0xE0002000) -- CPU_ReadMem(4 bytes @ 0xE000EDFC) -- CPU_ReadMem(4 bytes @ 0xE0001000) (0083ms, 0479ms total)
T1B20 000:507 JLINK_Halt()  returns 0x00 (0000ms, 0479ms total)
T1B20 000:507 JLINK_ReadMemU32(0xE000EDF0, 0x0001 Items, ...) -- CPU_ReadMem(4 bytes @ 0xE000EDF0) - Data: 03 00 03 00  returns 0x01 (0002ms, 0481ms total)
T1B20 000:509 JLINK_WriteU32(0xE000EDF0, 0xA05F0003) -- CPU_WriteMem(4 bytes @ 0xE000EDF0)  returns 0x00 (0001ms, 0482ms total)
T1B20 000:510 JLINK_WriteU32(0xE000EDFC, 0x01000000) -- CPU_WriteMem(4 bytes @ 0xE000EDFC)  returns 0x00 (0002ms, 0484ms total)
T1B20 000:552 JLINK_GetHWStatus(...)  returns 0x00 (0001ms, 0485ms total)
T1B20 000:567 JLINK_GetNumBPUnits(Type = 0xFFFFFF00)  returns 0x06 (0000ms, 0485ms total)
T1B20 000:568 JLINK_GetNumBPUnits(Type = 0xF0)  returns 0x2000 (0000ms, 0486ms total)
T1B20 000:568 JLINK_GetNumWPUnits()  returns 0x04 (0000ms, 0486ms total)
T1B20 000:580 JLINK_GetSpeed()  returns 0x3E8 (0000ms, 0486ms total)
T1B20 000:586 JLINK_ReadMemU32(0xE000E004, 0x0001 Items, ...) -- CPU_ReadMem(4 bytes @ 0xE000E004) - Data: 01 00 00 00  returns 0x01 (0001ms, 0487ms total)
T1B20 000:587 JLINK_ReadMemU32(0xE000E004, 0x0001 Items, ...) -- CPU_ReadMem(4 bytes @ 0xE000E004) - Data: 01 00 00 00  returns 0x01 (0002ms, 0489ms total)
T1B20 000:589 JLINK_WriteMemEx(0xE0001000, 0x001C Bytes, ..., Flags = 0x02000004) - Data: 01 00 00 00 00 00 00 00 00 00 00 00 00 00 00 00 ... -- CPU_WriteMem(28 bytes @ 0xE0001000)  returns 0x1C (0000ms, 0489ms total)
T1B20 000:589 JLINK_Halt()  returns 0x00 (0000ms, 0489ms total)
T1B20 000:589 JLINK_IsHalted()  returns TRUE (0000ms, 0489ms total)
T1B20 000:593 JLINK_WriteMem(0x20000000, 0x0234 Bytes, ...) - Data: 00 BE 0A E0 0D 78 2D 06 68 40 08 24 40 00 00 D3 ... -- CPU_WriteMem(564 bytes @ 0x20000000)  returns 0x234 (0009ms, 0498ms total)
T1B20 000:602 JLINK_WriteReg(R0, 0x00000000)  returns 0x00 (0000ms, 0498ms total)
T1B20 000:602 JLINK_WriteReg(R1, 0x03D09000)  returns 0x00 (0000ms, 0498ms total)
T1B20 000:602 JLINK_WriteReg(R2, 0x00000001)  returns 0x00 (0000ms, 0498ms total)
T1B20 000:602 JLINK_WriteReg(R3, 0x00000000)  returns 0x00 (0000ms, 0498ms total)
T1B20 000:602 JLINK_WriteReg(R4, 0x00000000)  returns 0x00 (0000ms, 0498ms total)
T1B20 000:602 JLINK_WriteReg(R5, 0x00000000)  returns 0x00 (0000ms, 0498ms total)
T1B20 000:602 JLINK_WriteReg(R6, 0x00000000)  returns 0x00 (0000ms, 0498ms total)
T1B20 000:602 JLINK_WriteReg(R7, 0x00000000)  returns 0x00 (0000ms, 0498ms total)
T1B20 000:602 JLINK_WriteReg(R8, 0x00000000)  returns 0x00 (0000ms, 0498ms total)
T1B20 000:602 JLINK_WriteReg(R9, 0x20000230)  returns 0x00 (0000ms, 0498ms total)
T1B20 000:603 JLINK_WriteReg(R10, 0x00000000)  returns 0x00 (0000ms, 0499ms total)
T1B20 000:603 JLINK_WriteReg(R11, 0x00000000)  returns 0x00 (0000ms, 0499ms total)
T1B20 000:603 JLINK_WriteReg(R12, 0x00000000)  returns 0x00 (0000ms, 0499ms total)
T1B20 000:603 JLINK_WriteReg(R13 (SP), 0x20004000)  returns 0x00 (0000ms, 0499ms total)
T1B20 000:603 JLINK_WriteReg(R14, 0x20000001)  returns 0x00 (0000ms, 0499ms total)
T1B20 000:603 JLINK_WriteReg(R15 (PC), 0x2000003C)  returns 0x00 (0000ms, 0499ms total)
T1B20 000:603 JLINK_WriteReg(XPSR, 0x01000000)  returns 0x00 (0000ms, 0499ms total)
T1B20 000:603 JLINK_WriteReg(MSP, 0x20004000)  returns 0x00 (0000ms, 0499ms total)
T1B20 000:603 JLINK_WriteReg(PSP, 0x20004000)  returns 0x00 (0000ms, 0499ms total)
T1B20 000:603 JLINK_WriteReg(CFBP, 0x00000000)  returns 0x00 (0000ms, 0499ms total)
T1B20 000:603 JLINK_SetBPEx(Addr = 0x20000000, Type = 0xFFFFFFF2) -- CPU_ReadMem(2 bytes @ 0x20000000)  returns 0x00000001 (0002ms, 0501ms total)
T1B20 000:605 JLINK_Go() -- CPU_WriteMem(2 bytes @ 0x20000000) -- CPU_ReadMem(4 bytes @ 0xE0001000) -- CPU_WriteMem(4 bytes @ 0xE0002008) -- CPU_WriteMem(4 bytes @ 0xE000200C) -- CPU_WriteMem(4 bytes @ 0xE0002010) -- CPU_WriteMem(4 bytes @ 0xE0002014) -- CPU_WriteMem(4 bytes @ 0xE0002018) -- CPU_WriteMem(4 bytes @ 0xE000201C) -- CPU_WriteMem(4 bytes @ 0xE0001004) (0008ms, 0509ms total)
T1B20 000:613 JLINK_IsHalted() -- CPU_ReadMem(2 bytes @ 0x20000000)  returns TRUE (0008ms, 0517ms total)
T1B20 000:621 JLINK_ReadReg(R15 (PC))  returns 0x20000000 (0000ms, 0509ms total)
T1B20 000:621 JLINK_ClrBPEx(BPHandle = 0x00000001)  returns 0x00 (0000ms, 0509ms total)
T1B20 000:621 JLINK_ReadReg(R0)  returns 0x00000000 (0000ms, 0509ms total)
T1B20 000:621 JLINK_WriteReg(R0, 0x00023000)  returns 0x00 (0001ms, 0510ms total)
T1B20 000:622 JLINK_WriteReg(R1, 0x00001000)  returns 0x00 (0000ms, 0510ms total)
T1B20 000:622 JLINK_WriteReg(R2, 0x000000FF)  returns 0x00 (0000ms, 0510ms total)
T1B20 000:622 JLINK_WriteReg(R3, 0x00000000)  returns 0x00 (0000ms, 0510ms total)
T1B20 000:622 JLINK_WriteReg(R4, 0x00000000)  returns 0x00 (0000ms, 0510ms total)
T1B20 000:622 JLINK_WriteReg(R5, 0x00000000)  returns 0x00 (0000ms, 0510ms total)
T1B20 000:622 JLINK_WriteReg(R6, 0x00000000)  returns 0x00 (0000ms, 0510ms total)
T1B20 000:622 JLINK_WriteReg(R7, 0x00000000)  returns 0x00 (0000ms, 0510ms total)
T1B20 000:622 JLINK_WriteReg(R8, 0x00000000)  returns 0x00 (0000ms, 0510ms total)
T1B20 000:622 JLINK_WriteReg(R9, 0x20000230)  returns 0x00 (0000ms, 0510ms total)
T1B20 000:622 JLINK_WriteReg(R10, 0x00000000)  returns 0x00 (0000ms, 0510ms total)
T1B20 000:622 JLINK_WriteReg(R11, 0x00000000)  returns 0x00 (0000ms, 0510ms total)
T1B20 000:622 JLINK_WriteReg(R12, 0x00000000)  returns 0x00 (0000ms, 0510ms total)
T1B20 000:622 JLINK_WriteReg(R13 (SP), 0x20004000)  returns 0x00 (0000ms, 0510ms total)
T1B20 000:622 JLINK_WriteReg(R14, 0x20000001)  returns 0x00 (0000ms, 0510ms total)
T1B20 000:622 JLINK_WriteReg(R15 (PC), 0x2000011A)  returns 0x00 (0000ms, 0510ms total)
T1B20 000:622 JLINK_WriteReg(XPSR, 0x01000000)  returns 0x00 (0000ms, 0510ms total)
T1B20 000:622 JLINK_WriteReg(MSP, 0x20004000)  returns 0x00 (0000ms, 0510ms total)
T1B20 000:622 JLINK_WriteReg(PSP, 0x20004000)  returns 0x00 (0000ms, 0510ms total)
T1B20 000:622 JLINK_WriteReg(CFBP, 0x00000000)  returns 0x00 (0000ms, 0510ms total)
T1B20 000:622 JLINK_SetBPEx(Addr = 0x20000000, Type = 0xFFFFFFF2)  returns 0x00000002 (0000ms, 0510ms total)
T1B20 000:622 JLINK_Go() -- CPU_ReadMem(4 bytes @ 0xE0001000) (0006ms, 0516ms total)
T1B20 000:628 JLINK_IsHalted() -- CPU_ReadMem(2 bytes @ 0x20000000)  returns TRUE (0007ms, 0523ms total)
T1B20 000:635 JLINK_ReadReg(R15 (PC))  returns 0x20000000 (0000ms, 0516ms total)
T1B20 000:635 JLINK_ClrBPEx(BPHandle = 0x00000002)  returns 0x00 (0000ms, 0516ms total)
T1B20 000:635 JLINK_ReadReg(R0)  returns 0x00000001 (0000ms, 0516ms total)
T1B20 000:635 JLINK_WriteReg(R0, 0x00023000)  returns 0x00 (0000ms, 0516ms total)
T1B20 000:635 JLINK_WriteReg(R1, 0x00001000)  returns 0x00 (0000ms, 0516ms total)
T1B20 000:635 JLINK_WriteReg(R2, 0x000000FF)  returns 0x00 (0000ms, 0516ms total)
T1B20 000:635 JLINK_WriteReg(R3, 0x00000000)  returns 0x00 (0000ms, 0516ms total)
T1B20 000:635 JLINK_WriteReg(R4, 0x00000000)  returns 0x00 (0000ms, 0516ms total)
T1B20 000:635 JLINK_WriteReg(R5, 0x00000000)  returns 0x00 (0000ms, 0516ms total)
T1B20 000:635 JLINK_WriteReg(R6, 0x00000000)  returns 0x00 (0000ms, 0516ms total)
T1B20 000:635 JLINK_WriteReg(R7, 0x00000000)  returns 0x00 (0000ms, 0516ms total)
T1B20 000:635 JLINK_WriteReg(R8, 0x00000000)  returns 0x00 (0000ms, 0516ms total)
T1B20 000:635 JLINK_WriteReg(R9, 0x20000230)  returns 0x00 (0000ms, 0516ms total)
T1B20 000:635 JLINK_WriteReg(R10, 0x00000000)  returns 0x00 (0000ms, 0516ms total)
T1B20 000:635 JLINK_WriteReg(R11, 0x00000000)  returns 0x00 (0000ms, 0516ms total)
T1B20 000:635 JLINK_WriteReg(R12, 0x00000000)  returns 0x00 (0000ms, 0516ms total)
T1B20 000:635 JLINK_WriteReg(R13 (SP), 0x20004000)  returns 0x00 (0000ms, 0516ms total)
T1B20 000:635 JLINK_WriteReg(R14, 0x20000001)  returns 0x00 (0000ms, 0516ms total)
T1B20 000:635 JLINK_WriteReg(R15 (PC), 0x200000D8)  returns 0x00 (0000ms, 0516ms total)
T1B20 000:635 JLINK_WriteReg(XPSR, 0x01000000)  returns 0x00 (0000ms, 0516ms total)
T1B20 000:635 JLINK_WriteReg(MSP, 0x20004000)  returns 0x00 (0000ms, 0516ms total)
T1B20 000:635 JLINK_WriteReg(PSP, 0x20004000)  returns 0x00 (0000ms, 0516ms total)
T1B20 000:635 JLINK_WriteReg(CFBP, 0x00000000)  returns 0x00 (0001ms, 0517ms total)
T1B20 000:636 JLINK_SetBPEx(Addr = 0x20000000, Type = 0xFFFFFFF2)  returns 0x00000003 (0000ms, 0517ms total)
T1B20 000:636 JLINK_Go() -- CPU_ReadMem(4 bytes @ 0xE0001000) (0004ms, 0521ms total)
T1B20 000:640 JLINK_IsHalted()  returns FALSE (0000ms, 0521ms total)
T1B20 000:706 JLINK_IsHalted() -- CPU_ReadMem(2 bytes @ 0x20000000)  returns TRUE (0008ms, 0529ms total)
T1B20 000:714 JLINK_ReadReg(R15 (PC))  returns 0x20000000 (0000ms, 0521ms total)
T1B20 000:714 JLINK_ClrBPEx(BPHandle = 0x00000003)  returns 0x00 (0000ms, 0521ms total)
T1B20 000:714 JLINK_ReadReg(R0)  returns 0x00000000 (0000ms, 0521ms total)
T1B20 000:715 JLINK_WriteReg(R0, 0x00024000)  returns 0x00 (0000ms, 0521ms total)
T1B20 000:715 JLINK_WriteReg(R1, 0x00001000)  returns 0x00 (0000ms, 0521ms total)
T1B20 000:715 JLINK_WriteReg(R2, 0x000000FF)  returns 0x00 (0000ms, 0521ms total)
T1B20 000:715 JLINK_WriteReg(R3, 0x00000000)  returns 0x00 (0000ms, 0521ms total)
T1B20 000:715 JLINK_WriteReg(R4, 0x00000000)  returns 0x00 (0000ms, 0521ms total)
T1B20 000:715 JLINK_WriteReg(R5, 0x00000000)  returns 0x00 (0000ms, 0521ms total)
T1B20 000:715 JLINK_WriteReg(R6, 0x00000000)  returns 0x00 (0000ms, 0521ms total)
T1B20 000:715 JLINK_WriteReg(R7, 0x00000000)  returns 0x00 (0000ms, 0521ms total)
T1B20 000:715 JLINK_WriteReg(R8, 0x00000000)  returns 0x00 (0000ms, 0521ms total)
T1B20 000:715 JLINK_WriteReg(R9, 0x20000230)  returns 0x00 (0000ms, 0521ms total)
T1B20 000:715 JLINK_WriteReg(R10, 0x00000000)  returns 0x00 (0000ms, 0521ms total)
T1B20 000:715 JLINK_WriteReg(R11, 0x00000000)  returns 0x00 (0000ms, 0521ms total)
T1B20 000:715 JLINK_WriteReg(R12, 0x00000000)  returns 0x00 (0000ms, 0521ms total)
T1B20 000:715 JLINK_WriteReg(R13 (SP), 0x20004000)  returns 0x00 (0000ms, 0521ms total)
T1B20 000:715 JLINK_WriteReg(R14, 0x20000001)  returns 0x00 (0000ms, 0521ms total)
T1B20 000:715 JLINK_WriteReg(R15 (PC), 0x2000011A)  returns 0x00 (0000ms, 0521ms total)
T1B20 000:715 JLINK_WriteReg(XPSR, 0x01000000)  returns 0x00 (0000ms, 0521ms total)
T1B20 000:715 JLINK_WriteReg(MSP, 0x20004000)  returns 0x00 (0000ms, 0521ms total)
T1B20 000:715 JLINK_WriteReg(PSP, 0x20004000)  returns 0x00 (0000ms, 0521ms total)
T1B20 000:715 JLINK_WriteReg(CFBP, 0x00000000)  returns 0x00 (0000ms, 0521ms total)
T1B20 000:715 JLINK_SetBPEx(Addr = 0x20000000, Type = 0xFFFFFFF2)  returns 0x00000004 (0000ms, 0521ms total)
T1B20 000:716 JLINK_Go() -- CPU_ReadMem(4 bytes @ 0xE0001000) (0004ms, 0526ms total)
T1B20 000:720 JLINK_IsHalted() -- CPU_ReadMem(2 bytes @ 0x20000000)  returns TRUE (0008ms, 0534ms total)
T1B20 000:728 JLINK_ReadReg(R15 (PC))  returns 0x20000000 (0000ms, 0526ms total)
T1B20 000:728 JLINK_ClrBPEx(BPHandle = 0x00000004)  returns 0x00 (0000ms, 0526ms total)
T1B20 000:728 JLINK_ReadReg(R0)  returns 0x00000001 (0000ms, 0526ms total)
T1B20 000:728 JLINK_WriteReg(R0, 0x00024000)  returns 0x00 (0000ms, 0526ms total)
T1B20 000:728 JLINK_WriteReg(R1, 0x00001000)  returns 0x00 (0001ms, 0527ms total)
T1B20 000:729 JLINK_WriteReg(R2, 0x000000FF)  returns 0x00 (0000ms, 0527ms total)
T1B20 000:729 JLINK_WriteReg(R3, 0x00000000)  returns 0x00 (0000ms, 0527ms total)
T1B20 000:729 JLINK_WriteReg(R4, 0x00000000)  returns 0x00 (0000ms, 0527ms total)
T1B20 000:729 JLINK_WriteReg(R5, 0x00000000)  returns 0x00 (0000ms, 0527ms total)
T1B20 000:729 JLINK_WriteReg(R6, 0x00000000)  returns 0x00 (0000ms, 0527ms total)
T1B20 000:729 JLINK_WriteReg(R7, 0x00000000)  returns 0x00 (0000ms, 0527ms total)
T1B20 000:729 JLINK_WriteReg(R8, 0x00000000)  returns 0x00 (0000ms, 0527ms total)
T1B20 000:729 JLINK_WriteReg(R9, 0x20000230)  returns 0x00 (0000ms, 0527ms total)
T1B20 000:729 JLINK_WriteReg(R10, 0x00000000)  returns 0x00 (0000ms, 0527ms total)
T1B20 000:729 JLINK_WriteReg(R11, 0x00000000)  returns 0x00 (0000ms, 0527ms total)
T1B20 000:729 JLINK_WriteReg(R12, 0x00000000)  returns 0x00 (0000ms, 0527ms total)
T1B20 000:729 JLINK_WriteReg(R13 (SP), 0x20004000)  returns 0x00 (0000ms, 0527ms total)
T1B20 000:729 JLINK_WriteReg(R14, 0x20000001)  returns 0x00 (0000ms, 0527ms total)
T1B20 000:729 JLINK_WriteReg(R15 (PC), 0x200000D8)  returns 0x00 (0000ms, 0527ms total)
T1B20 000:729 JLINK_WriteReg(XPSR, 0x01000000)  returns 0x00 (0000ms, 0527ms total)
T1B20 000:729 JLINK_WriteReg(MSP, 0x20004000)  returns 0x00 (0000ms, 0527ms total)
T1B20 000:729 JLINK_WriteReg(PSP, 0x20004000)  returns 0x00 (0000ms, 0527ms total)
T1B20 000:729 JLINK_WriteReg(CFBP, 0x00000000)  returns 0x00 (0000ms, 0527ms total)
T1B20 000:729 JLINK_SetBPEx(Addr = 0x20000000, Type = 0xFFFFFFF2)  returns 0x00000005 (0000ms, 0527ms total)
T1B20 000:729 JLINK_Go() -- CPU_ReadMem(4 bytes @ 0xE0001000) (0004ms, 0531ms total)
T1B20 000:733 JLINK_IsHalted()  returns FALSE (0001ms, 0532ms total)
T1B20 000:736 JLINK_IsHalted() -- CPU_ReadMem(2 bytes @ 0x20000000)  returns TRUE (0007ms, 0538ms total)
T1B20 000:743 JLINK_ReadReg(R15 (PC))  returns 0x20000000 (0001ms, 0532ms total)
T1B20 000:744 JLINK_ClrBPEx(BPHandle = 0x00000005)  returns 0x00 (0000ms, 0532ms total)
T1B20 000:744 JLINK_ReadReg(R0)  returns 0x00000000 (0000ms, 0532ms total)
T1B20 000:744 JLINK_WriteReg(R0, 0x00025000)  returns 0x00 (0000ms, 0532ms total)
T1B20 000:744 JLINK_WriteReg(R1, 0x00001000)  returns 0x00 (0000ms, 0532ms total)
T1B20 000:744 JLINK_WriteReg(R2, 0x000000FF)  returns 0x00 (0000ms, 0532ms total)
T1B20 000:744 JLINK_WriteReg(R3, 0x00000000)  returns 0x00 (0000ms, 0532ms total)
T1B20 000:744 JLINK_WriteReg(R4, 0x00000000)  returns 0x00 (0000ms, 0532ms total)
T1B20 000:744 JLINK_WriteReg(R5, 0x00000000)  returns 0x00 (0000ms, 0532ms total)
T1B20 000:744 JLINK_WriteReg(R6, 0x00000000)  returns 0x00 (0000ms, 0532ms total)
T1B20 000:744 JLINK_WriteReg(R7, 0x00000000)  returns 0x00 (0000ms, 0532ms total)
T1B20 000:744 JLINK_WriteReg(R8, 0x00000000)  returns 0x00 (0001ms, 0533ms total)
T1B20 000:745 JLINK_WriteReg(R9, 0x20000230)  returns 0x00 (0000ms, 0533ms total)
T1B20 000:745 JLINK_WriteReg(R10, 0x00000000)  returns 0x00 (0000ms, 0533ms total)
T1B20 000:745 JLINK_WriteReg(R11, 0x00000000)  returns 0x00 (0000ms, 0533ms total)
T1B20 000:745 JLINK_WriteReg(R12, 0x00000000)  returns 0x00 (0000ms, 0533ms total)
T1B20 000:745 JLINK_WriteReg(R13 (SP), 0x20004000)  returns 0x00 (0000ms, 0533ms total)
T1B20 000:745 JLINK_WriteReg(R14, 0x20000001)  returns 0x00 (0000ms, 0533ms total)
T1B20 000:745 JLINK_WriteReg(R15 (PC), 0x2000011A)  returns 0x00 (0000ms, 0533ms total)
T1B20 000:745 JLINK_WriteReg(XPSR, 0x01000000)  returns 0x00 (0000ms, 0533ms total)
T1B20 000:745 JLINK_WriteReg(MSP, 0x20004000)  returns 0x00 (0000ms, 0533ms total)
T1B20 000:745 JLINK_WriteReg(PSP, 0x20004000)  returns 0x00 (0000ms, 0533ms total)
T1B20 000:745 JLINK_WriteReg(CFBP, 0x00000000)  returns 0x00 (0000ms, 0533ms total)
T1B20 000:745 JLINK_SetBPEx(Addr = 0x20000000, Type = 0xFFFFFFF2)  returns 0x00000006 (0000ms, 0533ms total)
T1B20 000:745 JLINK_Go() -- CPU_ReadMem(4 bytes @ 0xE0001000) (0004ms, 0537ms total)
T1B20 000:749 JLINK_IsHalted() -- CPU_ReadMem(2 bytes @ 0x20000000)  returns TRUE (0008ms, 0545ms total)
T1B20 000:757 JLINK_ReadReg(R15 (PC))  returns 0x20000000 (0000ms, 0537ms total)
T1B20 000:757 JLINK_ClrBPEx(BPHandle = 0x00000006)  returns 0x00 (0000ms, 0537ms total)
T1B20 000:757 JLINK_ReadReg(R0)  returns 0x00000001 (0000ms, 0537ms total)
T1B20 000:757 JLINK_WriteReg(R0, 0x00025000)  returns 0x00 (0000ms, 0537ms total)
T1B20 000:757 JLINK_WriteReg(R1, 0x00001000)  returns 0x00 (0000ms, 0537ms total)
T1B20 000:757 JLINK_WriteReg(R2, 0x000000FF)  returns 0x00 (0000ms, 0537ms total)
T1B20 000:757 JLINK_WriteReg(R3, 0x00000000)  returns 0x00 (0000ms, 0537ms total)
T1B20 000:757 JLINK_WriteReg(R4, 0x00000000)  returns 0x00 (0000ms, 0537ms total)
T1B20 000:757 JLINK_WriteReg(R5, 0x00000000)  returns 0x00 (0000ms, 0537ms total)
T1B20 000:757 JLINK_WriteReg(R6, 0x00000000)  returns 0x00 (0000ms, 0537ms total)
T1B20 000:758 JLINK_WriteReg(R7, 0x00000000)  returns 0x00 (0000ms, 0538ms total)
T1B20 000:758 JLINK_WriteReg(R8, 0x00000000)  returns 0x00 (0000ms, 0538ms total)
T1B20 000:758 JLINK_WriteReg(R9, 0x20000230)  returns 0x00 (0000ms, 0538ms total)
T1B20 000:758 JLINK_WriteReg(R10, 0x00000000)  returns 0x00 (0000ms, 0538ms total)
T1B20 000:758 JLINK_WriteReg(R11, 0x00000000)  returns 0x00 (0000ms, 0538ms total)
T1B20 000:758 JLINK_WriteReg(R12, 0x00000000)  returns 0x00 (0000ms, 0538ms total)
T1B20 000:758 JLINK_WriteReg(R13 (SP), 0x20004000)  returns 0x00 (0000ms, 0538ms total)
T1B20 000:758 JLINK_WriteReg(R14, 0x20000001)  returns 0x00 (0000ms, 0538ms total)
T1B20 000:758 JLINK_WriteReg(R15 (PC), 0x200000D8)  returns 0x00 (0000ms, 0538ms total)
T1B20 000:758 JLINK_WriteReg(XPSR, 0x01000000)  returns 0x00 (0000ms, 0538ms total)
T1B20 000:758 JLINK_WriteReg(MSP, 0x20004000)  returns 0x00 (0000ms, 0538ms total)
T1B20 000:758 JLINK_WriteReg(PSP, 0x20004000)  returns 0x00 (0000ms, 0538ms total)
T1B20 000:758 JLINK_WriteReg(CFBP, 0x00000000)  returns 0x00 (0000ms, 0538ms total)
T1B20 000:758 JLINK_SetBPEx(Addr = 0x20000000, Type = 0xFFFFFFF2)  returns 0x00000007 (0000ms, 0538ms total)
T1B20 000:758 JLINK_Go() -- CPU_ReadMem(4 bytes @ 0xE0001000) (0004ms, 0542ms total)
T1B20 000:762 JLINK_IsHalted()  returns FALSE (0001ms, 0543ms total)
T1B20 000:766 JLINK_IsHalted() -- CPU_ReadMem(2 bytes @ 0x20000000)  returns TRUE (0008ms, 0550ms total)
T1B20 000:774 JLINK_ReadReg(R15 (PC))  returns 0x20000000 (0000ms, 0542ms total)
T1B20 000:774 JLINK_ClrBPEx(BPHandle = 0x00000007)  returns 0x00 (0000ms, 0542ms total)
T1B20 000:774 JLINK_ReadReg(R0)  returns 0x00000000 (0000ms, 0542ms total)
T1B20 000:774 JLINK_WriteReg(R0, 0x00026000)  returns 0x00 (0000ms, 0542ms total)
T1B20 000:774 JLINK_WriteReg(R1, 0x00001000)  returns 0x00 (0000ms, 0542ms total)
T1B20 000:774 JLINK_WriteReg(R2, 0x000000FF)  returns 0x00 (0000ms, 0542ms total)
T1B20 000:774 JLINK_WriteReg(R3, 0x00000000)  returns 0x00 (0001ms, 0543ms total)
T1B20 000:775 JLINK_WriteReg(R4, 0x00000000)  returns 0x00 (0000ms, 0543ms total)
T1B20 000:775 JLINK_WriteReg(R5, 0x00000000)  returns 0x00 (0000ms, 0543ms total)
T1B20 000:775 JLINK_WriteReg(R6, 0x00000000)  returns 0x00 (0000ms, 0543ms total)
T1B20 000:775 JLINK_WriteReg(R7, 0x00000000)  returns 0x00 (0000ms, 0543ms total)
T1B20 000:775 JLINK_WriteReg(R8, 0x00000000)  returns 0x00 (0000ms, 0543ms total)
T1B20 000:775 JLINK_WriteReg(R9, 0x20000230)  returns 0x00 (0000ms, 0543ms total)
T1B20 000:775 JLINK_WriteReg(R10, 0x00000000)  returns 0x00 (0000ms, 0543ms total)
T1B20 000:775 JLINK_WriteReg(R11, 0x00000000)  returns 0x00 (0000ms, 0543ms total)
T1B20 000:775 JLINK_WriteReg(R12, 0x00000000)  returns 0x00 (0000ms, 0543ms total)
T1B20 000:775 JLINK_WriteReg(R13 (SP), 0x20004000)  returns 0x00 (0000ms, 0543ms total)
T1B20 000:775 JLINK_WriteReg(R14, 0x20000001)  returns 0x00 (0000ms, 0543ms total)
T1B20 000:775 JLINK_WriteReg(R15 (PC), 0x2000011A)  returns 0x00 (0000ms, 0543ms total)
T1B20 000:775 JLINK_WriteReg(XPSR, 0x01000000)  returns 0x00 (0000ms, 0543ms total)
T1B20 000:775 JLINK_WriteReg(MSP, 0x20004000)  returns 0x00 (0000ms, 0543ms total)
T1B20 000:775 JLINK_WriteReg(PSP, 0x20004000)  returns 0x00 (0000ms, 0543ms total)
T1B20 000:775 JLINK_WriteReg(CFBP, 0x00000000)  returns 0x00 (0000ms, 0543ms total)
T1B20 000:775 JLINK_SetBPEx(Addr = 0x20000000, Type = 0xFFFFFFF2)  returns 0x00000008 (0000ms, 0543ms total)
T1B20 000:775 JLINK_Go() -- CPU_ReadMem(4 bytes @ 0xE0001000) (0005ms, 0548ms total)
T1B20 000:780 JLINK_IsHalted() -- CPU_ReadMem(2 bytes @ 0x20000000)  returns TRUE (0008ms, 0556ms total)
T1B20 000:788 JLINK_ReadReg(R15 (PC))  returns 0x20000000 (0000ms, 0548ms total)
T1B20 000:788 JLINK_ClrBPEx(BPHandle = 0x00000008)  returns 0x00 (0000ms, 0548ms total)
T1B20 000:788 JLINK_ReadReg(R0)  returns 0x00000001 (0000ms, 0548ms total)
T1B20 000:788 JLINK_WriteReg(R0, 0x00026000)  returns 0x00 (0000ms, 0548ms total)
T1B20 000:788 JLINK_WriteReg(R1, 0x00001000)  returns 0x00 (0000ms, 0548ms total)
T1B20 000:788 JLINK_WriteReg(R2, 0x000000FF)  returns 0x00 (0000ms, 0548ms total)
T1B20 000:788 JLINK_WriteReg(R3, 0x00000000)  returns 0x00 (0000ms, 0548ms total)
T1B20 000:788 JLINK_WriteReg(R4, 0x00000000)  returns 0x00 (0000ms, 0548ms total)
T1B20 000:788 JLINK_WriteReg(R5, 0x00000000)  returns 0x00 (0000ms, 0548ms total)
T1B20 000:788 JLINK_WriteReg(R6, 0x00000000)  returns 0x00 (0000ms, 0548ms total)
T1B20 000:788 JLINK_WriteReg(R7, 0x00000000)  returns 0x00 (0000ms, 0548ms total)
T1B20 000:788 JLINK_WriteReg(R8, 0x00000000)  returns 0x00 (0000ms, 0548ms total)
T1B20 000:788 JLINK_WriteReg(R9, 0x20000230)  returns 0x00 (0000ms, 0548ms total)
T1B20 000:788 JLINK_WriteReg(R10, 0x00000000)  returns 0x00 (0000ms, 0548ms total)
T1B20 000:788 JLINK_WriteReg(R11, 0x00000000)  returns 0x00 (0000ms, 0548ms total)
T1B20 000:788 JLINK_WriteReg(R12, 0x00000000)  returns 0x00 (0000ms, 0548ms total)
T1B20 000:788 JLINK_WriteReg(R13 (SP), 0x20004000)  returns 0x00 (0000ms, 0548ms total)
T1B20 000:788 JLINK_WriteReg(R14, 0x20000001)  returns 0x00 (0000ms, 0548ms total)
T1B20 000:788 JLINK_WriteReg(R15 (PC), 0x200000D8)  returns 0x00 (0000ms, 0548ms total)
T1B20 000:788 JLINK_WriteReg(XPSR, 0x01000000)  returns 0x00 (0000ms, 0548ms total)
T1B20 000:788 JLINK_WriteReg(MSP, 0x20004000)  returns 0x00 (0000ms, 0548ms total)
T1B20 000:788 JLINK_WriteReg(PSP, 0x20004000)  returns 0x00 (0000ms, 0548ms total)
T1B20 000:788 JLINK_WriteReg(CFBP, 0x00000000)  returns 0x00 (0001ms, 0549ms total)
T1B20 000:789 JLINK_SetBPEx(Addr = 0x20000000, Type = 0xFFFFFFF2)  returns 0x00000009 (0000ms, 0549ms total)
T1B20 000:789 JLINK_Go() -- CPU_ReadMem(4 bytes @ 0xE0001000) (0003ms, 0552ms total)
T1B20 000:792 JLINK_IsHalted()  returns FALSE (0001ms, 0553ms total)
T1B20 000:796 JLINK_IsHalted() -- CPU_ReadMem(2 bytes @ 0x20000000)  returns TRUE (0007ms, 0559ms total)
T1B20 000:803 JLINK_ReadReg(R15 (PC))  returns 0x20000000 (0000ms, 0552ms total)
T1B20 000:803 JLINK_ClrBPEx(BPHandle = 0x00000009)  returns 0x00 (0000ms, 0552ms total)
T1B20 000:803 JLINK_ReadReg(R0)  returns 0x00000000 (0000ms, 0552ms total)
T1B20 000:804 JLINK_WriteReg(R0, 0x00027000)  returns 0x00 (0000ms, 0552ms total)
T1B20 000:804 JLINK_WriteReg(R1, 0x00001000)  returns 0x00 (0000ms, 0552ms total)
T1B20 000:804 JLINK_WriteReg(R2, 0x000000FF)  returns 0x00 (0000ms, 0552ms total)
T1B20 000:804 JLINK_WriteReg(R3, 0x00000000)  returns 0x00 (0000ms, 0552ms total)
T1B20 000:804 JLINK_WriteReg(R4, 0x00000000)  returns 0x00 (0000ms, 0552ms total)
T1B20 000:804 JLINK_WriteReg(R5, 0x00000000)  returns 0x00 (0000ms, 0552ms total)
T1B20 000:804 JLINK_WriteReg(R6, 0x00000000)  returns 0x00 (0000ms, 0552ms total)
T1B20 000:804 JLINK_WriteReg(R7, 0x00000000)  returns 0x00 (0000ms, 0552ms total)
T1B20 000:804 JLINK_WriteReg(R8, 0x00000000)  returns 0x00 (0000ms, 0552ms total)
T1B20 000:804 JLINK_WriteReg(R9, 0x20000230)  returns 0x00 (0000ms, 0552ms total)
T1B20 000:804 JLINK_WriteReg(R10, 0x00000000)  returns 0x00 (0000ms, 0552ms total)
T1B20 000:804 JLINK_WriteReg(R11, 0x00000000)  returns 0x00 (0000ms, 0552ms total)
T1B20 000:804 JLINK_WriteReg(R12, 0x00000000)  returns 0x00 (0000ms, 0552ms total)
T1B20 000:804 JLINK_WriteReg(R13 (SP), 0x20004000)  returns 0x00 (0000ms, 0552ms total)
T1B20 000:804 JLINK_WriteReg(R14, 0x20000001)  returns 0x00 (0000ms, 0552ms total)
T1B20 000:804 JLINK_WriteReg(R15 (PC), 0x2000011A)  returns 0x00 (0000ms, 0552ms total)
T1B20 000:805 JLINK_WriteReg(XPSR, 0x01000000)  returns 0x00 (0000ms, 0553ms total)
T1B20 000:805 JLINK_WriteReg(MSP, 0x20004000)  returns 0x00 (0000ms, 0553ms total)
T1B20 000:805 JLINK_WriteReg(PSP, 0x20004000)  returns 0x00 (0000ms, 0553ms total)
T1B20 000:805 JLINK_WriteReg(CFBP, 0x00000000)  returns 0x00 (0000ms, 0553ms total)
T1B20 000:805 JLINK_SetBPEx(Addr = 0x20000000, Type = 0xFFFFFFF2)  returns 0x0000000A (0000ms, 0553ms total)
T1B20 000:805 JLINK_Go() -- CPU_ReadMem(4 bytes @ 0xE0001000) (0004ms, 0557ms total)
T1B20 000:809 JLINK_IsHalted() -- CPU_ReadMem(2 bytes @ 0x20000000)  returns TRUE (0008ms, 0565ms total)
T1B20 000:817 JLINK_ReadReg(R15 (PC))  returns 0x20000000 (0001ms, 0558ms total)
T1B20 000:818 JLINK_ClrBPEx(BPHandle = 0x0000000A)  returns 0x00 (0000ms, 0558ms total)
T1B20 000:818 JLINK_ReadReg(R0)  returns 0x00000001 (0000ms, 0558ms total)
T1B20 000:818 JLINK_WriteReg(R0, 0x00027000)  returns 0x00 (0000ms, 0558ms total)
T1B20 000:818 JLINK_WriteReg(R1, 0x00001000)  returns 0x00 (0000ms, 0558ms total)
T1B20 000:818 JLINK_WriteReg(R2, 0x000000FF)  returns 0x00 (0000ms, 0558ms total)
T1B20 000:818 JLINK_WriteReg(R3, 0x00000000)  returns 0x00 (0000ms, 0558ms total)
T1B20 000:818 JLINK_WriteReg(R4, 0x00000000)  returns 0x00 (0000ms, 0558ms total)
T1B20 000:818 JLINK_WriteReg(R5, 0x00000000)  returns 0x00 (0000ms, 0558ms total)
T1B20 000:818 JLINK_WriteReg(R6, 0x00000000)  returns 0x00 (0000ms, 0558ms total)
T1B20 000:818 JLINK_WriteReg(R7, 0x00000000)  returns 0x00 (0000ms, 0558ms total)
T1B20 000:818 JLINK_WriteReg(R8, 0x00000000)  returns 0x00 (0000ms, 0558ms total)
T1B20 000:818 JLINK_WriteReg(R9, 0x20000230)  returns 0x00 (0000ms, 0558ms total)
T1B20 000:818 JLINK_WriteReg(R10, 0x00000000)  returns 0x00 (0000ms, 0558ms total)
T1B20 000:818 JLINK_WriteReg(R11, 0x00000000)  returns 0x00 (0000ms, 0558ms total)
T1B20 000:818 JLINK_WriteReg(R12, 0x00000000)  returns 0x00 (0000ms, 0558ms total)
T1B20 000:818 JLINK_WriteReg(R13 (SP), 0x20004000)  returns 0x00 (0000ms, 0558ms total)
T1B20 000:818 JLINK_WriteReg(R14, 0x20000001)  returns 0x00 (0000ms, 0558ms total)
T1B20 000:818 JLINK_WriteReg(R15 (PC), 0x200000D8)  returns 0x00 (0000ms, 0558ms total)
T1B20 000:818 JLINK_WriteReg(XPSR, 0x01000000)  returns 0x00 (0000ms, 0558ms total)
T1B20 000:818 JLINK_WriteReg(MSP, 0x20004000)  returns 0x00 (0000ms, 0558ms total)
T1B20 000:818 JLINK_WriteReg(PSP, 0x20004000)  returns 0x00 (0000ms, 0558ms total)
T1B20 000:818 JLINK_WriteReg(CFBP, 0x00000000)  returns 0x00 (0000ms, 0558ms total)
T1B20 000:818 JLINK_SetBPEx(Addr = 0x20000000, Type = 0xFFFFFFF2)  returns 0x0000000B (0000ms, 0558ms total)
T1B20 000:818 JLINK_Go() -- CPU_ReadMem(4 bytes @ 0xE0001000) (0004ms, 0562ms total)
T1B20 000:822 JLINK_IsHalted()  returns FALSE (0001ms, 0563ms total)
T1B20 000:826 JLINK_IsHalted() -- CPU_ReadMem(2 bytes @ 0x20000000)  returns TRUE (0008ms, 0570ms total)
T1B20 000:834 JLINK_ReadReg(R15 (PC))  returns 0x20000000 (0000ms, 0562ms total)
T1B20 000:834 JLINK_ClrBPEx(BPHandle = 0x0000000B)  returns 0x00 (0000ms, 0562ms total)
T1B20 000:834 JLINK_ReadReg(R0)  returns 0x00000000 (0000ms, 0562ms total)
T1B20 000:835 JLINK_WriteReg(R0, 0x00028000)  returns 0x00 (0000ms, 0562ms total)
T1B20 000:835 JLINK_WriteReg(R1, 0x00001000)  returns 0x00 (0000ms, 0562ms total)
T1B20 000:835 JLINK_WriteReg(R2, 0x000000FF)  returns 0x00 (0000ms, 0562ms total)
T1B20 000:835 JLINK_WriteReg(R3, 0x00000000)  returns 0x00 (0000ms, 0562ms total)
T1B20 000:835 JLINK_WriteReg(R4, 0x00000000)  returns 0x00 (0000ms, 0562ms total)
T1B20 000:835 JLINK_WriteReg(R5, 0x00000000)  returns 0x00 (0000ms, 0562ms total)
T1B20 000:835 JLINK_WriteReg(R6, 0x00000000)  returns 0x00 (0000ms, 0562ms total)
T1B20 000:835 JLINK_WriteReg(R7, 0x00000000)  returns 0x00 (0000ms, 0562ms total)
T1B20 000:835 JLINK_WriteReg(R8, 0x00000000)  returns 0x00 (0000ms, 0562ms total)
T1B20 000:835 JLINK_WriteReg(R9, 0x20000230)  returns 0x00 (0000ms, 0562ms total)
T1B20 000:835 JLINK_WriteReg(R10, 0x00000000)  returns 0x00 (0000ms, 0562ms total)
T1B20 000:835 JLINK_WriteReg(R11, 0x00000000)  returns 0x00 (0000ms, 0562ms total)
T1B20 000:835 JLINK_WriteReg(R12, 0x00000000)  returns 0x00 (0000ms, 0562ms total)
T1B20 000:835 JLINK_WriteReg(R13 (SP), 0x20004000)  returns 0x00 (0000ms, 0562ms total)
T1B20 000:835 JLINK_WriteReg(R14, 0x20000001)  returns 0x00 (0000ms, 0562ms total)
T1B20 000:835 JLINK_WriteReg(R15 (PC), 0x2000011A)  returns 0x00 (0000ms, 0562ms total)
T1B20 000:835 JLINK_WriteReg(XPSR, 0x01000000)  returns 0x00 (0000ms, 0562ms total)
T1B20 000:835 JLINK_WriteReg(MSP, 0x20004000)  returns 0x00 (0000ms, 0562ms total)
T1B20 000:835 JLINK_WriteReg(PSP, 0x20004000)  returns 0x00 (0000ms, 0562ms total)
T1B20 000:835 JLINK_WriteReg(CFBP, 0x00000000)  returns 0x00 (0000ms, 0562ms total)
T1B20 000:835 JLINK_SetBPEx(Addr = 0x20000000, Type = 0xFFFFFFF2)  returns 0x0000000C (0000ms, 0562ms total)
T1B20 000:835 JLINK_Go() -- CPU_ReadMem(4 bytes @ 0xE0001000) (0005ms, 0567ms total)
T1B20 000:840 JLINK_IsHalted() -- CPU_ReadMem(2 bytes @ 0x20000000)  returns TRUE (0008ms, 0575ms total)
T1B20 000:848 JLINK_ReadReg(R15 (PC))  returns 0x20000000 (0000ms, 0567ms total)
T1B20 000:848 JLINK_ClrBPEx(BPHandle = 0x0000000C)  returns 0x00 (0000ms, 0567ms total)
T1B20 000:848 JLINK_ReadReg(R0)  returns 0x00000001 (0000ms, 0567ms total)
T1B20 000:848 JLINK_WriteReg(R0, 0x00028000)  returns 0x00 (0000ms, 0567ms total)
T1B20 000:848 JLINK_WriteReg(R1, 0x00001000)  returns 0x00 (0000ms, 0567ms total)
T1B20 000:848 JLINK_WriteReg(R2, 0x000000FF)  returns 0x00 (0000ms, 0567ms total)
T1B20 000:848 JLINK_WriteReg(R3, 0x00000000)  returns 0x00 (0000ms, 0567ms total)
T1B20 000:848 JLINK_WriteReg(R4, 0x00000000)  returns 0x00 (0000ms, 0567ms total)
T1B20 000:848 JLINK_WriteReg(R5, 0x00000000)  returns 0x00 (0000ms, 0567ms total)
T1B20 000:848 JLINK_WriteReg(R6, 0x00000000)  returns 0x00 (0000ms, 0567ms total)
T1B20 000:848 JLINK_WriteReg(R7, 0x00000000)  returns 0x00 (0000ms, 0567ms total)
T1B20 000:848 JLINK_WriteReg(R8, 0x00000000)  returns 0x00 (0000ms, 0567ms total)
T1B20 000:848 JLINK_WriteReg(R9, 0x20000230)  returns 0x00 (0000ms, 0567ms total)
T1B20 000:848 JLINK_WriteReg(R10, 0x00000000)  returns 0x00 (0000ms, 0567ms total)
T1B20 000:848 JLINK_WriteReg(R11, 0x00000000)  returns 0x00 (0000ms, 0567ms total)
T1B20 000:848 JLINK_WriteReg(R12, 0x00000000)  returns 0x00 (0000ms, 0567ms total)
T1B20 000:848 JLINK_WriteReg(R13 (SP), 0x20004000)  returns 0x00 (0000ms, 0567ms total)
T1B20 000:848 JLINK_WriteReg(R14, 0x20000001)  returns 0x00 (0000ms, 0567ms total)
T1B20 000:848 JLINK_WriteReg(R15 (PC), 0x200000D8)  returns 0x00 (0000ms, 0567ms total)
T1B20 000:848 JLINK_WriteReg(XPSR, 0x01000000)  returns 0x00 (0000ms, 0567ms total)
T1B20 000:848 JLINK_WriteReg(MSP, 0x20004000)  returns 0x00 (0000ms, 0567ms total)
T1B20 000:848 JLINK_WriteReg(PSP, 0x20004000)  returns 0x00 (0000ms, 0567ms total)
T1B20 000:848 JLINK_WriteReg(CFBP, 0x00000000)  returns 0x00 (0000ms, 0567ms total)
T1B20 000:848 JLINK_SetBPEx(Addr = 0x20000000, Type = 0xFFFFFFF2)  returns 0x0000000D (0000ms, 0567ms total)
T1B20 000:848 JLINK_Go() -- CPU_ReadMem(4 bytes @ 0xE0001000) (0004ms, 0571ms total)
T1B20 000:852 JLINK_IsHalted()  returns FALSE (0001ms, 0572ms total)
T1B20 000:858 JLINK_IsHalted() -- CPU_ReadMem(2 bytes @ 0x20000000)  returns TRUE (0009ms, 0580ms total)
T1B20 000:867 JLINK_ReadReg(R15 (PC))  returns 0x20000000 (0000ms, 0571ms total)
T1B20 000:867 JLINK_ClrBPEx(BPHandle = 0x0000000D)  returns 0x00 (0000ms, 0571ms total)
T1B20 000:867 JLINK_ReadReg(R0)  returns 0x00000000 (0000ms, 0571ms total)
T1B20 000:867 JLINK_WriteReg(R0, 0x00000001)  returns 0x00 (0000ms, 0571ms total)
T1B20 000:867 JLINK_WriteReg(R1, 0x00001000)  returns 0x00 (0000ms, 0571ms total)
T1B20 000:867 JLINK_WriteReg(R2, 0x000000FF)  returns 0x00 (0000ms, 0571ms total)
T1B20 000:867 JLINK_WriteReg(R3, 0x00000000)  returns 0x00 (0000ms, 0571ms total)
T1B20 000:867 JLINK_WriteReg(R4, 0x00000000)  returns 0x00 (0000ms, 0571ms total)
T1B20 000:867 JLINK_WriteReg(R5, 0x00000000)  returns 0x00 (0000ms, 0571ms total)
T1B20 000:867 JLINK_WriteReg(R6, 0x00000000)  returns 0x00 (0000ms, 0571ms total)
T1B20 000:867 JLINK_WriteReg(R7, 0x00000000)  returns 0x00 (0000ms, 0571ms total)
T1B20 000:867 JLINK_WriteReg(R8, 0x00000000)  returns 0x00 (0000ms, 0571ms total)
T1B20 000:867 JLINK_WriteReg(R9, 0x20000230)  returns 0x00 (0000ms, 0571ms total)
T1B20 000:867 JLINK_WriteReg(R10, 0x00000000)  returns 0x00 (0000ms, 0571ms total)
T1B20 000:867 JLINK_WriteReg(R11, 0x00000000)  returns 0x00 (0000ms, 0571ms total)
T1B20 000:867 JLINK_WriteReg(R12, 0x00000000)  returns 0x00 (0000ms, 0571ms total)
T1B20 000:867 JLINK_WriteReg(R13 (SP), 0x20004000)  returns 0x00 (0000ms, 0571ms total)
T1B20 000:867 JLINK_WriteReg(R14, 0x20000001)  returns 0x00 (0000ms, 0571ms total)
T1B20 000:867 JLINK_WriteReg(R15 (PC), 0x2000008E)  returns 0x00 (0000ms, 0571ms total)
T1B20 000:867 JLINK_WriteReg(XPSR, 0x01000000)  returns 0x00 (0000ms, 0571ms total)
T1B20 000:867 JLINK_WriteReg(MSP, 0x20004000)  returns 0x00 (0000ms, 0571ms total)
T1B20 000:867 JLINK_WriteReg(PSP, 0x20004000)  returns 0x00 (0000ms, 0571ms total)
T1B20 000:867 JLINK_WriteReg(CFBP, 0x00000000)  returns 0x00 (0000ms, 0571ms total)
T1B20 000:867 JLINK_SetBPEx(Addr = 0x20000000, Type = 0xFFFFFFF2)  returns 0x0000000E (0000ms, 0571ms total)
T1B20 000:867 JLINK_Go() -- CPU_ReadMem(4 bytes @ 0xE0001000) (0005ms, 0576ms total)
T1B20 000:872 JLINK_IsHalted() -- CPU_ReadMem(2 bytes @ 0x20000000)  returns TRUE (0007ms, 0583ms total)
T1B20 000:879 JLINK_ReadReg(R15 (PC))  returns 0x20000000 (0000ms, 0576ms total)
T1B20 000:879 JLINK_ClrBPEx(BPHandle = 0x0000000E)  returns 0x00 (0000ms, 0576ms total)
T1B20 000:879 JLINK_ReadReg(R0)  returns 0x00000000 (0000ms, 0576ms total)
T1B20 000:959 JLINK_WriteMem(0x20000000, 0x0234 Bytes, ...) - Data: 00 BE 0A E0 0D 78 2D 06 68 40 08 24 40 00 00 D3 ... -- CPU_WriteMem(564 bytes @ 0x20000000)  returns 0x234 (0010ms, 0586ms total)
T1B20 000:969 JLINK_WriteReg(R0, 0x00000000)  returns 0x00 (0000ms, 0586ms total)
T1B20 000:969 JLINK_WriteReg(R1, 0x03D09000)  returns 0x00 (0000ms, 0586ms total)
T1B20 000:969 JLINK_WriteReg(R2, 0x00000002)  returns 0x00 (0000ms, 0586ms total)
T1B20 000:969 JLINK_WriteReg(R3, 0x00000000)  returns 0x00 (0000ms, 0586ms total)
T1B20 000:969 JLINK_WriteReg(R4, 0x00000000)  returns 0x00 (0000ms, 0586ms total)
T1B20 000:969 JLINK_WriteReg(R5, 0x00000000)  returns 0x00 (0000ms, 0586ms total)
T1B20 000:969 JLINK_WriteReg(R6, 0x00000000)  returns 0x00 (0000ms, 0586ms total)
T1B20 000:970 JLINK_WriteReg(R7, 0x00000000)  returns 0x00 (0000ms, 0587ms total)
T1B20 000:970 JLINK_WriteReg(R8, 0x00000000)  returns 0x00 (0000ms, 0587ms total)
T1B20 000:970 JLINK_WriteReg(R9, 0x20000230)  returns 0x00 (0000ms, 0587ms total)
T1B20 000:970 JLINK_WriteReg(R10, 0x00000000)  returns 0x00 (0000ms, 0587ms total)
T1B20 000:970 JLINK_WriteReg(R11, 0x00000000)  returns 0x00 (0000ms, 0587ms total)
T1B20 000:970 JLINK_WriteReg(R12, 0x00000000)  returns 0x00 (0000ms, 0587ms total)
T1B20 000:970 JLINK_WriteReg(R13 (SP), 0x20004000)  returns 0x00 (0000ms, 0587ms total)
T1B20 000:970 JLINK_WriteReg(R14, 0x20000001)  returns 0x00 (0000ms, 0587ms total)
T1B20 000:970 JLINK_WriteReg(R15 (PC), 0x2000003C)  returns 0x00 (0000ms, 0587ms total)
T1B20 000:970 JLINK_WriteReg(XPSR, 0x01000000)  returns 0x00 (0000ms, 0587ms total)
T1B20 000:970 JLINK_WriteReg(MSP, 0x20004000)  returns 0x00 (0000ms, 0587ms total)
T1B20 000:970 JLINK_WriteReg(PSP, 0x20004000)  returns 0x00 (0000ms, 0587ms total)
T1B20 000:970 JLINK_WriteReg(CFBP, 0x00000000)  returns 0x00 (0000ms, 0587ms total)
T1B20 000:970 JLINK_SetBPEx(Addr = 0x20000000, Type = 0xFFFFFFF2) -- CPU_ReadMem(2 bytes @ 0x20000000)  returns 0x0000000F (0002ms, 0589ms total)
T1B20 000:972 JLINK_Go() -- CPU_WriteMem(2 bytes @ 0x20000000) -- CPU_ReadMem(4 bytes @ 0xE0001000) (0005ms, 0594ms total)
T1B20 000:977 JLINK_IsHalted() -- CPU_ReadMem(2 bytes @ 0x20000000)  returns TRUE (0008ms, 0602ms total)
T1B20 000:985 JLINK_ReadReg(R15 (PC))  returns 0x20000000 (0000ms, 0594ms total)
T1B20 000:985 JLINK_ClrBPEx(BPHandle = 0x0000000F)  returns 0x00 (0000ms, 0594ms total)
T1B20 000:985 JLINK_ReadReg(R0)  returns 0x00000000 (0001ms, 0595ms total)
T1B20 000:986 JLINK_WriteMem(0x20000234, 0x01CC Bytes, ...) - Data: B8 4A 00 20 4D 33 02 00 55 33 02 00 57 33 02 00 ... -- CPU_WriteMem(460 bytes @ 0x20000234)  returns 0x1CC (0007ms, 0602ms total)
T1B20 000:993 JLINK_WriteMem(0x20000400, 0x0400 Bytes, ...) - Data: 00 00 00 00 00 00 00 00 00 00 00 00 00 00 00 00 ... -- CPU_WriteMem(1024 bytes @ 0x20000400)  returns 0x400 (0015ms, 0617ms total)
T1B20 001:008 JLINK_WriteMem(0x20000800, 0x0400 Bytes, ...) - Data: 80 F8 00 14 70 47 00 00 2D E9 F0 41 4F F4 80 77 ... -- CPU_WriteMem(1024 bytes @ 0x20000800)  returns 0x400 (0015ms, 0632ms total)
T1B20 001:023 JLINK_WriteMem(0x20000C00, 0x0400 Bytes, ...) - Data: 74 24 00 20 04 48 01 7F 04 48 00 29 02 49 01 D0 ... -- CPU_WriteMem(1024 bytes @ 0x20000C00)  returns 0x400 (0015ms, 0647ms total)
T1B20 001:038 JLINK_WriteMem(0x20001000, 0x0234 Bytes, ...) - Data: 00 2C 0F D1 EF F3 10 80 72 B6 0B 68 4F F0 E0 22 ... -- CPU_WriteMem(564 bytes @ 0x20001000)  returns 0x234 (0009ms, 0656ms total)
T1B20 001:048 JLINK_WriteReg(R0, 0x00023000)  returns 0x00 (0000ms, 0656ms total)
T1B20 001:048 JLINK_WriteReg(R1, 0x00001000)  returns 0x00 (0000ms, 0656ms total)
T1B20 001:048 JLINK_WriteReg(R2, 0x20000234)  returns 0x00 (0000ms, 0656ms total)
T1B20 001:048 JLINK_WriteReg(R3, 0x00000000)  returns 0x00 (0000ms, 0656ms total)
T1B20 001:048 JLINK_WriteReg(R4, 0x00000000)  returns 0x00 (0001ms, 0657ms total)
T1B20 001:049 JLINK_WriteReg(R5, 0x00000000)  returns 0x00 (0000ms, 0657ms total)
T1B20 001:049 JLINK_WriteReg(R6, 0x00000000)  returns 0x00 (0000ms, 0657ms total)
T1B20 001:049 JLINK_WriteReg(R7, 0x00000000)  returns 0x00 (0000ms, 0657ms total)
T1B20 001:049 JLINK_WriteReg(R8, 0x00000000)  returns 0x00 (0000ms, 0657ms total)
T1B20 001:049 JLINK_WriteReg(R9, 0x20000230)  returns 0x00 (0000ms, 0657ms total)
T1B20 001:050 JLINK_WriteReg(R10, 0x00000000)  returns 0x00 (0000ms, 0657ms total)
T1B20 001:050 JLINK_WriteReg(R11, 0x00000000)  returns 0x00 (0000ms, 0657ms total)
T1B20 001:050 JLINK_WriteReg(R12, 0x00000000)  returns 0x00 (0000ms, 0657ms total)
T1B20 001:050 JLINK_WriteReg(R13 (SP), 0x20004000)  returns 0x00 (0000ms, 0657ms total)
T1B20 001:050 JLINK_WriteReg(R14, 0x20000001)  returns 0x00 (0000ms, 0657ms total)
T1B20 001:050 JLINK_WriteReg(R15 (PC), 0x20000156)  returns 0x00 (0000ms, 0657ms total)
T1B20 001:050 JLINK_WriteReg(XPSR, 0x01000000)  returns 0x00 (0000ms, 0657ms total)
T1B20 001:050 JLINK_WriteReg(MSP, 0x20004000)  returns 0x00 (0000ms, 0657ms total)
T1B20 001:051 JLINK_WriteReg(PSP, 0x20004000)  returns 0x00 (0000ms, 0658ms total)
T1B20 001:051 JLINK_WriteReg(CFBP, 0x00000000)  returns 0x00 (0000ms, 0658ms total)
T1B20 001:051 JLINK_SetBPEx(Addr = 0x20000000, Type = 0xFFFFFFF2)  returns 0x00000010 (0000ms, 0658ms total)
T1B20 001:051 JLINK_Go() -- CPU_ReadMem(4 bytes @ 0xE0001000) (0005ms, 0663ms total)
T1B20 001:057 JLINK_IsHalted()  returns FALSE (0001ms, 0665ms total)
T1B20 001:073 JLINK_IsHalted()  returns FALSE (0001ms, 0665ms total)
T1B20 001:076 JLINK_IsHalted()  returns FALSE (0001ms, 0665ms total)
T1B20 001:079 JLINK_IsHalted()  returns FALSE (0001ms, 0665ms total)
T1B20 001:082 JLINK_IsHalted()  returns FALSE (0001ms, 0665ms total)
T1B20 001:085 JLINK_IsHalted()  returns FALSE (0001ms, 0665ms total)
T1B20 001:088 JLINK_IsHalted()  returns FALSE (0001ms, 0665ms total)
T1B20 001:091 JLINK_IsHalted()  returns FALSE (0001ms, 0665ms total)
T1B20 001:094 JLINK_IsHalted()  returns FALSE (0001ms, 0665ms total)
T1B20 001:097 JLINK_IsHalted()  returns FALSE (0001ms, 0665ms total)
T1B20 001:100 JLINK_IsHalted()  returns FALSE (0001ms, 0665ms total)
T1B20 001:103 JLINK_IsHalted()  returns FALSE (0001ms, 0665ms total)
T1B20 001:106 JLINK_IsHalted()  returns FALSE (0001ms, 0665ms total)
T1B20 001:109 JLINK_IsHalted()  returns FALSE (0001ms, 0665ms total)
T1B20 001:112 JLINK_IsHalted()  returns FALSE (0001ms, 0665ms total)
T1B20 001:115 JLINK_IsHalted()  returns FALSE (0001ms, 0665ms total)
T1B20 001:118 JLINK_IsHalted()  returns FALSE (0001ms, 0665ms total)
T1B20 001:121 JLINK_IsHalted()  returns FALSE (0001ms, 0665ms total)
T1B20 001:124 JLINK_IsHalted()  returns FALSE (0001ms, 0665ms total)
T1B20 001:128 JLINK_IsHalted() -- CPU_ReadMem(2 bytes @ 0x20000000)  returns TRUE (0008ms, 0672ms total)
T1B20 001:136 JLINK_ReadReg(R15 (PC))  returns 0x20000000 (0000ms, 0664ms total)
T1B20 001:136 JLINK_ClrBPEx(BPHandle = 0x00000010)  returns 0x00 (0000ms, 0664ms total)
T1B20 001:136 JLINK_ReadReg(R0)  returns 0x00000000 (0000ms, 0664ms total)
T1B20 001:139 JLINK_WriteMem(0x20000234, 0x01CC Bytes, ...) - Data: 00 47 4B 46 15 22 14 21 06 F1 18 00 04 F0 46 F8 ... -- CPU_WriteMem(460 bytes @ 0x20000234)  returns 0x1CC (0007ms, 0671ms total)
T1B20 001:146 JLINK_WriteMem(0x20000400, 0x0400 Bytes, ...) - Data: 60 46 7F DF 33 E0 3B 29 38 D0 51 29 3E D0 52 29 ... -- CPU_WriteMem(1024 bytes @ 0x20000400)  returns 0x400 (0015ms, 0686ms total)
T1B20 001:161 JLINK_WriteMem(0x20000800, 0x0400 Bytes, ...) - Data: 00 00 6A 46 19 46 4F F6 FF 70 A4 DF 04 48 03 21 ... -- CPU_WriteMem(1024 bytes @ 0x20000800)  returns 0x400 (0016ms, 0702ms total)
T1B20 001:177 JLINK_WriteMem(0x20000C00, 0x0400 Bytes, ...) - Data: 8D F8 00 10 84 F8 24 10 20 7E 40 07 DF D4 D4 E9 ... -- CPU_WriteMem(1024 bytes @ 0x20000C00)  returns 0x400 (0014ms, 0716ms total)
T1B20 001:191 JLINK_WriteMem(0x20001000, 0x0234 Bytes, ...) - Data: 10 4C 24 1F 20 78 01 28 FC D1 0E 49 A2 88 89 1C ... -- CPU_WriteMem(564 bytes @ 0x20001000)  returns 0x234 (0009ms, 0725ms total)
T1B20 001:200 JLINK_WriteReg(R0, 0x00024000)  returns 0x00 (0000ms, 0725ms total)
T1B20 001:200 JLINK_WriteReg(R1, 0x00001000)  returns 0x00 (0000ms, 0725ms total)
T1B20 001:200 JLINK_WriteReg(R2, 0x20000234)  returns 0x00 (0000ms, 0725ms total)
T1B20 001:200 JLINK_WriteReg(R3, 0x00000000)  returns 0x00 (0000ms, 0725ms total)
T1B20 001:200 JLINK_WriteReg(R4, 0x00000000)  returns 0x00 (0001ms, 0726ms total)
T1B20 001:201 JLINK_WriteReg(R5, 0x00000000)  returns 0x00 (0000ms, 0726ms total)
T1B20 001:201 JLINK_WriteReg(R6, 0x00000000)  returns 0x00 (0000ms, 0726ms total)
T1B20 001:201 JLINK_WriteReg(R7, 0x00000000)  returns 0x00 (0000ms, 0726ms total)
T1B20 001:201 JLINK_WriteReg(R8, 0x00000000)  returns 0x00 (0000ms, 0726ms total)
T1B20 001:201 JLINK_WriteReg(R9, 0x20000230)  returns 0x00 (0000ms, 0726ms total)
T1B20 001:201 JLINK_WriteReg(R10, 0x00000000)  returns 0x00 (0000ms, 0726ms total)
T1B20 001:201 JLINK_WriteReg(R11, 0x00000000)  returns 0x00 (0000ms, 0726ms total)
T1B20 001:201 JLINK_WriteReg(R12, 0x00000000)  returns 0x00 (0000ms, 0726ms total)
T1B20 001:202 JLINK_WriteReg(R13 (SP), 0x20004000)  returns 0x00 (0000ms, 0727ms total)
